ad9361_init : AD9361 Rev 2 successfully initialized
wyc's debug:TX FIR EN=1/TAPS128/INT2, RX FIR EN=1/TAPS128/DEC2
wyc's debug:RX 1280000000 640000000 320000000 160000000 80000000 40000000
wyc's debug:TX 1280000000 320000000 320000000 160000000 80000000 40000000

Register Check:
register 0x0fa = 0xe0
register 0x101 = 0xa
register 0x105 = 0x3a
register 0x0fc = 0x23
register 0x104 = 0x2f
register 0x15c = 0x79
register 0x0fb = 0x8
register 0x108 = 0x31
register 0x107 = 0x2b
register 0x114 = 0x30
register 0x100 = 0x6f
register 0x0fe = 0x49
register 0x122 = 0x55
register 0x106 = 0x22
register 0x120 = 0xc
register 0x128 = 0x3
register 0x124 = 0x30
register 0x125 = 0x9c
register 0x123 = 0x11
register 0x129 = 0x56
register 0x121 = 0x5a
register 0x103 = 0x8
register 0x12a = 0x22
register 0x022 = 0x2
register 0x117 = 0x2
register 0x110 = 0x40
register 0x11b = 0x5
register 0x111 = 0xcf
register 0x118 = 0x5
register 0x112 = 0x4a
register 0x113 = 0x4a
register 0x116 = 0x65
register 0x115 = 0x0
register 0x119 = 0x8
register 0x158 = 0xc
register 0x10a = 0x58
register 0x156 = 0x5
register 0x151 = 0xbc
register 0x150 = 0xee
register 0x152 = 0x6b
register 0x153 = 0x6b
register 0x154 = 0x1b
register 0x155 = 0xe
register 0x157 = 0xa
register 0x073 = 0x28
register 0x035 = 0x0
register 0x036 = 0xff
register 0x014 = 0x19
bbdc_get:1 rfdc_get:1 rxquad_get:1
0x0A0: 3a
0x169: cd
0x16A: 75
0x16B: 95
0x170: 0
0x171: 0
Done.
9Uart Initial Successful
INF: HASCH Init OK!
join NET success
Time Slot index: 0
join NET success
Time Slot index: 0
client start!
10
offset:1671799103.4751281738
delay:82004.3439636230
offset:1671799099.6742858887
delay:82004.3287048340
offset:-1.7668921947
delay:82004.2151546478
offset:-1.7277177572
delay:82004.1761256456
offset:-1.7668210268
delay:82004.2016354799
offset:-1.4521876574
delay:82004.1284397840
offset:-1.0322744846
delay:82004.1763000488
offset:-1.0325260162
delay:82004.1778564453
offset:-0.8294024467
delay:82004.1624915600
offset:-0.4124537706
delay:82004.1962004900
offset:-0.4392584562
delay:82004.1832944155
offset:-0.2877516747
delay:82004.1171090603
offset:-0.1634159088
delay:82004.1471252441
offset:-0.1919875145
delay:82004.1716308594
offset:-0.1852633953
delay:82004.1913757324
offset:-0.1005437374
delay:82004.1733703613
offset:-0.1337542534
delay:82004.1778564453
offset:-0.1117146015
delay:82004.1626121998
offset:-0.0903480053
delay:82004.1726961136
offset:-0.1072866917
delay:82004.1938753128
offset:-0.0121299028
delay:82004.1473315954
offset:0.0245753527
delay:82004.1479128599
offset:0.0113873482
delay:82004.1534395218
offset:-0.0025258064
delay:82004.1522216797
offset:0.0162847042
delay:82004.1133394241
offset:0.0150655508
delay:82004.1152590513
offset:0.0233182907
delay:82004.1264648438
offset:0.0165144205
delay:82004.1091250181
offset:0.0224639177
delay:82004.1015566587
offset:-0.0068039894
delay:82004.1317806244
offset:0.0099705458
delay:82004.1194094419
offset:-0.0007120371
delay:82004.1436709166
offset:-0.0168572664
delay:82004.1705263853
offset:0.0079520941
delay:82004.0868471861
offset:-0.0098717213
delay:82004.1100711823
offset:-0.0237818956
delay:82004.1822727919
offset:-0.0199018717
delay:82004.1310671568
offset:-0.0065366030
delay:82004.1351259947
offset:0.0010027885
delay:82004.1212739944
offset:0.0158457756
delay:82004.1334838867
offset:0.0233821869
delay:82004.1229248047
offset:-0.0251260996
delay:82004.1331235170
offset:-0.0230771303
delay:82004.1570404768
offset:0.0197957754
delay:82004.0878237486
offset:-0.0254312754
delay:82004.0257655382
offset:-0.0157514811
delay:82004.0871335268
offset:-0.0534813404
delay:82004.0332059860
offset:-0.0541729927
delay:82004.0846266747
offset:0.0038001537
delay:82004.0810763836
offset:-0.0162760019
delay:82004.0654820204
offset:0.0183628798
delay:82004.0526617765
offset:0.0306977034
delay:82004.0476626158
offset:0.0091508627
delay:82004.1590822935
offset:0.0315798521
delay:82004.1629885435
offset:0.0294276476
delay:82004.1097296476
offset:0.0525949001
delay:82004.1407964230
offset:0.0230159760
delay:82004.1215965748
offset:0.0186274052
delay:82004.1384277344
offset:0.0081279278
delay:82004.1221618652
offset:-0.0124875307
delay:82004.1756838560
offset:0.0304971933
delay:82004.1263340712
offset:0.0237877369
delay:82004.1413791180
offset:0.0454697609
delay:82004.1241760254
offset:0.0018935204
delay:82004.1565799713
offset:0.0544738770
delay:82004.1036624908
offset:0.0150974989
delay:82004.1509908438
offset:0.0002630949
delay:82004.1412745714
offset:-0.0336827040
delay:82004.1620541811
offset:-0.0249851942
delay:82004.1595503092
offset:-0.0132068396
delay:82004.1935890913
offset:0.0229361057
delay:82004.2068030834
offset:-0.0096275806
delay:82004.1879694462
offset:0.0275282860
delay:82004.1244869232
offset:-0.0493251085
delay:82004.1533900499
offset:0.0082688332
delay:82004.1305804253
offset:0.0614624023
delay:82004.1225380898
offset:0.0564124584
delay:82004.1854350567
offset:0.0673100948
delay:82004.1378958225
offset:0.0548734665
delay:82004.1040649414
offset:0.0773882866
delay:82004.0814514160
offset:0.0028221607
delay:82004.1493122578
offset:0.0678014755
delay:82004.1104679108
offset:0.0443928242
delay:82004.1136415005
offset:0.0220131874
delay:82004.1500854492
offset:0.0019285679
delay:82004.1775672436
offset:0.0742957592
delay:82004.1435706615
offset:0.0029864311
delay:82004.2120347023
offset:0.0133755207
delay:82004.1815912724
offset:-0.0083692074
delay:82004.1733791828
offset:-0.0089924335
delay:82004.1610572338
offset:0.0306265354
delay:82004.1721932888
offset:0.0224883556
delay:82004.1807382107
offset:0.0484547615
delay:82004.1781921387
offset:0.0609974861
delay:82004.1729097366
offset:0.0166540146
delay:82004.2022676468
offset:0.0120646954
delay:82004.2133700848
offset:0.0475158691
delay:82004.1788492203
offset:0.0247294903
delay:82004.2085731030
offset:0.0809745789
delay:82004.1896667480
offset:0.0536353588
delay:82004.2233159542
offset:0.0710041523
delay:82004.2195928097
